!Agilent Technologies,E5071C,MY46101915,A.08.10
!Date: Mon Jan 01 00:37:22 2001
!Data & Calibration Information:
!Freq	S11:SOLT2(ON)	S21:SOLT2(ON)	S12:SOLT2(ON)	S22:SOLT2(ON)
# Hz S dB R 50
100000	-6.114216e+001	-1.415215e+001	-1.056565e-002	-1.984251e-002	7.337926e-003	-1.094244e-001	-5.955542e+001	-6.888198e+001
15099500	-2.323907e+001	-1.018025e+002	-5.539558e-002	-1.020232e+001	-3.988912e-002	-1.019133e+001	-2.322186e+001	-1.006238e+002
30099000	-1.748322e+001	-1.127214e+002	-1.386636e-001	-2.012495e+001	-1.176077e-001	-2.007777e+001	-1.753490e+001	-1.104035e+002
45098500	-1.431388e+001	-1.231775e+002	-2.406988e-001	-2.979197e+001	-2.213615e-001	-2.976201e+001	-1.431646e+001	-1.201345e+002
60098000	-1.221750e+001	-1.332670e+002	-3.639561e-001	-3.929507e+001	-3.435092e-001	-3.927953e+001	-1.220915e+001	-1.292244e+002
75097500	-1.074547e+001	-1.433108e+002	-4.946092e-001	-4.854389e+001	-4.743335e-001	-4.850404e+001	-1.072127e+001	-1.383096e+002
90097000	-9.684008e+000	-1.529548e+002	-6.258608e-001	-5.753600e+001	-6.037294e-001	-5.753511e+001	-9.670300e+000	-1.470035e+002
105096500	-8.934531e+000	-1.625620e+002	-7.426566e-001	-6.633760e+001	-7.258982e-001	-6.631376e+001	-8.903858e+000	-1.557145e+002
120096000	-8.403658e+000	-1.720306e+002	-8.392035e-001	-7.494618e+001	-8.208277e-001	-7.488922e+001	-8.392633e+000	-1.640843e+002
135095500	-8.070089e+000	1.788427e+002	-9.151260e-001	-8.345465e+001	-8.868923e-001	-8.341970e+001	-8.070419e+000	-1.722887e+002
150095000	-7.903251e+000	1.697327e+002	-9.508742e-001	-9.187978e+001	-9.272559e-001	-9.185872e+001	-7.921890e+000	1.794968e+002
165094500	-7.901700e+000	1.608454e+002	-9.629679e-001	-1.003509e+002	-9.412872e-001	-1.003061e+002	-7.923912e+000	1.713679e+002
180094000	-8.054669e+000	1.517974e+002	-9.416421e-001	-1.088207e+002	-9.144013e-001	-1.087898e+002	-8.079820e+000	1.632451e+002
195093500	-8.404649e+000	1.427234e+002	-8.889053e-001	-1.174594e+002	-8.637227e-001	-1.174374e+002	-8.425708e+000	1.548948e+002
210093000	-8.946205e+000	1.335943e+002	-8.165945e-001	-1.262064e+002	-7.948538e-001	-1.261897e+002	-8.952748e+000	1.464369e+002
225092500	-9.723866e+000	1.243519e+002	-7.285215e-001	-1.351797e+002	-7.047316e-001	-1.351511e+002	-9.741210e+000	1.377315e+002
240092000	-1.080611e+001	1.150898e+002	-6.256431e-001	-1.443905e+002	-6.028390e-001	-1.443546e+002	-1.081741e+001	1.287489e+002
255091500	-1.229098e+001	1.058887e+002	-5.282135e-001	-1.538152e+002	-5.044309e-001	-1.537971e+002	-1.231522e+001	1.195273e+002
270091000	-1.434939e+001	9.725949e+001	-4.346422e-001	-1.635184e+002	-4.147817e-001	-1.634772e+002	-1.440066e+001	1.101154e+002
285090500	-1.733458e+001	9.000613e+001	-3.612716e-001	-1.734485e+002	-3.411864e-001	-1.734205e+002	-1.743212e+001	1.005374e+002
300090000	-2.211192e+001	8.735348e+001	-3.190808e-001	1.764093e+002	-2.989519e-001	1.764380e+002	-2.246798e+001	9.042474e+001
315089500	-3.072886e+001	1.196470e+002	-3.103280e-001	1.661665e+002	-2.865422e-001	1.662137e+002	-3.662873e+001	7.918088e+001
330089000	-2.568869e+001	-1.620270e+002	-3.365925e-001	1.559054e+002	-3.097614e-001	1.559625e+002	-2.720260e+001	-1.090784e+002
345088500	-1.973152e+001	-1.575513e+002	-3.817548e-001	1.456765e+002	-3.526612e-001	1.457163e+002	-2.019706e+001	-1.192164e+002
360088000	-1.648782e+001	-1.637357e+002	-4.415415e-001	1.354946e+002	-4.130147e-001	1.354896e+002	-1.675620e+001	-1.288871e+002
375087500	-1.453279e+001	-1.721803e+002	-5.104128e-001	1.253290e+002	-4.862358e-001	1.252928e+002	-1.473209e+001	-1.383944e+002
390087000	-1.338776e+001	1.782514e+002	-5.760551e-001	1.151846e+002	-5.631126e-001	1.151606e+002	-1.355874e+001	-1.475597e+002
405086500	-1.279954e+001	1.683731e+002	-6.364208e-001	1.051085e+002	-6.221653e-001	1.051320e+002	-1.296711e+001	-1.566740e+002
420086000	-1.278825e+001	1.578973e+002	-6.642369e-001	9.494189e+001	-6.549462e-001	9.501926e+001	-1.288948e+001	-1.652175e+002
435085500	-1.334800e+001	1.470267e+002	-6.617096e-001	8.450866e+001	-6.388137e-001	8.462471e+001	-1.349637e+001	-1.736548e+002
450085000	-1.488197e+001	1.356263e+002	-6.316212e-001	7.368185e+001	-5.985321e-001	7.377846e+001	-1.496836e+001	1.791457e+002
465084500	-1.799394e+001	1.228511e+002	-5.858241e-001	6.219991e+001	-5.540074e-001	6.221809e+001	-1.794723e+001	1.755275e+002
480084000	-2.664684e+001	1.040460e+002	-5.707137e-001	4.987408e+001	-5.432723e-001	4.986332e+001	-2.407772e+001	-1.664198e+002
495083500	-2.467823e+001	-7.578719e+001	-6.397751e-001	3.667879e+001	-6.197049e-001	3.669163e+001	-2.168573e+001	-8.811513e+001
510083000	-1.475701e+001	-9.468458e+001	-8.534162e-001	2.267614e+001	-8.291984e-001	2.277262e+001	-1.413417e+001	-7.918710e+001
525082500	-9.893185e+000	-1.104392e+002	-1.268089e+000	8.184744e+000	-1.232173e+000	8.261894e+000	-9.639791e+000	-8.704235e+001
540082000	-6.838589e+000	-1.258862e+002	-1.921032e+000	-6.291799e+000	-1.872529e+000	-6.339065e+000	-6.697842e+000	-9.838091e+001
555081500	-4.805436e+000	-1.404643e+002	-2.809986e+000	-2.030866e+001	-2.765991e+000	-2.042805e+001	-4.718494e+000	-1.103190e+002
570081000	-3.434962e+000	-1.538474e+002	-3.897920e+000	-3.318035e+001	-3.872711e+000	-3.338309e+001	-3.386046e+000	-1.217822e+002
585080500	-2.521503e+000	-1.658040e+002	-5.106078e+000	-4.460378e+001	-5.093885e+000	-4.479110e+001	-2.477629e+000	-1.322260e+002
600080000	-1.889056e+000	-1.763994e+002	-6.360594e+000	-5.466634e+001	-6.348665e+000	-5.480589e+001	-1.872685e+000	-1.416071e+002
615079500	-1.468080e+000	1.741526e+002	-7.603397e+000	-6.346938e+001	-7.585903e+000	-6.353239e+001	-1.472397e+000	-1.499911e+002
630079000	-1.165868e+000	1.657513e+002	-8.790196e+000	-7.131925e+001	-8.772886e+000	-7.142109e+001	-1.195622e+000	-1.574211e+002
645078500	-9.501542e-001	1.582168e+002	-9.935987e+000	-7.831458e+001	-9.915600e+000	-7.854431e+001	-1.018707e+000	-1.639217e+002
660078000	-8.013088e-001	1.513707e+002	-1.100049e+001	-8.463749e+001	-1.099095e+001	-8.493216e+001	-8.753332e-001	-1.696631e+002
675077500	-6.909507e-001	1.451050e+002	-1.201053e+001	-9.068575e+001	-1.201898e+001	-9.099590e+001	-7.523425e-001	-1.749667e+002
690077000	-6.075767e-001	1.392767e+002	-1.297328e+001	-9.619733e+001	-1.300350e+001	-9.652726e+001	-6.667254e-001	-1.799611e+002
705076500	-5.427705e-001	1.338942e+002	-1.391139e+001	-1.012231e+002	-1.395666e+001	-1.014141e+002	-6.136629e-001	1.754524e+002
720076000	-4.892931e-001	1.287445e+002	-1.476595e+001	-1.057662e+002	-1.482669e+001	-1.058012e+002	-5.773172e-001	1.711267e+002
735075500	-4.585801e-001	1.238585e+002	-1.555516e+001	-1.101133e+002	-1.559446e+001	-1.099748e+002	-5.588707e-001	1.671142e+002
750075000	-4.193352e-001	1.191500e+002	-1.625397e+001	-1.141247e+002	-1.629074e+001	-1.139199e+002	-5.462533e-001	1.633032e+002
765074500	-3.902163e-001	1.146868e+002	-1.692192e+001	-1.182357e+002	-1.693687e+001	-1.179955e+002	-5.364509e-001	1.597424e+002
780074000	-3.613650e-001	1.104929e+002	-1.756623e+001	-1.220076e+002	-1.756818e+001	-1.218925e+002	-5.286398e-001	1.563934e+002
795073500	-3.400175e-001	1.064051e+002	-1.814546e+001	-1.254511e+002	-1.814935e+001	-1.255355e+002	-4.897150e-001	1.532030e+002
810073000	-3.171592e-001	1.024590e+002	-1.866475e+001	-1.288506e+002	-1.867645e+001	-1.289930e+002	-4.530310e-001	1.499325e+002
825072500	-3.158398e-001	9.864582e+001	-1.912063e+001	-1.322761e+002	-1.914622e+001	-1.324399e+002	-4.319305e-001	1.467189e+002
840072000	-3.092211e-001	9.495610e+001	-1.955866e+001	-1.356527e+002	-1.960917e+001	-1.356936e+002	-4.222900e-001	1.436761e+002
855071500	-2.998756e-001	9.132474e+001	-1.995097e+001	-1.390165e+002	-2.001248e+001	-1.389712e+002	-4.142094e-001	1.407280e+002
870071000	-3.031891e-001	8.775961e+001	-2.029789e+001	-1.421712e+002	-2.035718e+001	-1.420620e+002	-4.128734e-001	1.378354e+002
885070500	-3.020113e-001	8.429589e+001	-2.062502e+001	-1.454900e+002	-2.067423e+001	-1.452095e+002	-4.153829e-001	1.350761e+002
900070000	-3.053717e-001	8.082269e+001	-2.093042e+001	-1.486037e+002	-2.096353e+001	-1.483945e+002	-4.186094e-001	1.322842e+002
915069500	-2.963560e-001	7.743737e+001	-2.121291e+001	-1.514413e+002	-2.124729e+001	-1.512547e+002	-4.319019e-001	1.296775e+002
930069000	-2.797943e-001	7.413173e+001	-2.139388e+001	-1.538198e+002	-2.143654e+001	-1.537075e+002	-4.251436e-001	1.269600e+002
945068500	-2.609457e-001	7.091505e+001	-2.148476e+001	-1.566662e+002	-2.153086e+001	-1.564702e+002	-4.190388e-001	1.242467e+002
960068000	-2.672326e-001	6.773354e+001	-2.156862e+001	-1.595738e+002	-2.163065e+001	-1.593588e+002	-4.304125e-001	1.215213e+002
975067500	-2.577787e-001	6.459011e+001	-2.160256e+001	-1.626456e+002	-2.168810e+001	-1.623594e+002	-4.646149e-001	1.188397e+002
990067000	-2.538338e-001	6.148331e+001	-2.163263e+001	-1.657975e+002	-2.172397e+001	-1.653547e+002	-5.130231e-001	1.162953e+002
1005066500	-2.594368e-001	5.834026e+001	-2.164175e+001	-1.688537e+002	-2.172596e+001	-1.682360e+002	-5.526180e-001	1.138868e+002
1020066000	-2.571794e-001	5.528818e+001	-2.161319e+001	-1.717698e+002	-2.169286e+001	-1.711361e+002	-5.992177e-001	1.116907e+002
1035065500	-2.682491e-001	5.223120e+001	-2.152536e+001	-1.749880e+002	-2.156379e+001	-1.742338e+002	-6.314269e-001	1.093385e+002
1050065000	-2.750143e-001	4.908333e+001	-2.152022e+001	-1.786126e+002	-2.154530e+001	-1.778639e+002	-7.008845e-001	1.071631e+002
1065064500	-2.891747e-001	4.585544e+001	-2.160852e+001	1.791478e+002	-2.161718e+001	1.797962e+002	-7.205017e-001	1.052976e+002
1080064000	-2.910855e-001	4.265519e+001	-2.147801e+001	1.779124e+002	-2.147814e+001	1.784132e+002	-7.204547e-001	1.032285e+002
1095063500	-3.004458e-001	3.941058e+001	-2.115417e+001	1.763390e+002	-2.116797e+001	1.768894e+002	-7.010712e-001	1.010195e+002
1110063000	-3.020958e-001	3.613605e+001	-2.071480e+001	1.741852e+002	-2.075869e+001	1.747447e+002	-7.081758e-001	9.856951e+001
1125062500	-3.071044e-001	3.285196e+001	-2.019504e+001	1.716129e+002	-2.026686e+001	1.723710e+002	-7.470644e-001	9.623858e+001
1140062000	-3.275368e-001	2.948183e+001	-1.969498e+001	1.684952e+002	-1.975792e+001	1.695689e+002	-7.779501e-001	9.408025e+001
1155061500	-3.461933e-001	2.609820e+001	-1.917014e+001	1.654672e+002	-1.921066e+001	1.666448e+002	-7.812092e-001	9.184730e+001
1170061000	-3.738437e-001	2.259965e+001	-1.854827e+001	1.623823e+002	-1.855498e+001	1.637149e+002	-7.852811e-001	8.951928e+001
1185060500	-4.056200e-001	1.900952e+001	-1.790095e+001	1.592734e+002	-1.786479e+001	1.605891e+002	-7.951770e-001	8.707766e+001
1200060000	-4.511599e-001	1.520268e+001	-1.714050e+001	1.561415e+002	-1.705601e+001	1.573385e+002	-7.861038e-001	8.434933e+001
1215059500	-5.027107e-001	1.115111e+001	-1.626095e+001	1.526246e+002	-1.616377e+001	1.536642e+002	-8.224552e-001	8.143348e+001
1230059000	-5.775048e-001	6.761384e+000	-1.528438e+001	1.488585e+002	-1.519920e+001	1.496634e+002	-8.858707e-001	7.840491e+001
1245058500	-6.818576e-001	1.957272e+000	-1.416505e+001	1.445708e+002	-1.408358e+001	1.453159e+002	-9.658859e-001	7.514839e+001
1260058000	-8.332754e-001	-3.410182e+000	-1.290176e+001	1.395130e+002	-1.283313e+001	1.403635e+002	-1.094924e+000	7.152970e+001
1275057500	-1.064756e+000	-9.493530e+000	-1.150336e+001	1.334217e+002	-1.143358e+001	1.344213e+002	-1.308788e+000	6.735830e+001
1290057000	-1.443655e+000	-1.678669e+001	-9.941957e+000	1.259780e+002	-9.844405e+000	1.270333e+002	-1.619856e+000	6.306026e+001
1305056500	-2.115458e+000	-2.589790e+001	-8.232445e+000	1.165701e+002	-8.094069e+000	1.175128e+002	-2.115096e+000	5.796290e+001
1320056000	-3.444665e+000	-3.748384e+001	-6.424700e+000	1.041756e+002	-6.265157e+000	1.049588e+002	-3.046224e+000	5.227082e+001
1335055500	-6.328000e+000	-5.187174e+001	-4.705629e+000	8.769575e+001	-4.550359e+000	8.817196e+001	-4.823259e+000	4.819810e+001
1350055000	-1.411945e+001	-6.139996e+001	-3.492487e+000	6.665707e+001	-3.367165e+000	6.699141e+001	-7.568270e+000	5.487439e+001
1365054500	-1.569986e+001	5.417096e+001	-3.276766e+000	4.372126e+001	-3.177060e+000	4.402070e+001	-8.144055e+000	7.908863e+001
1380054000	-7.318150e+000	4.870572e+001	-3.981256e+000	2.371458e+001	-3.913889e+000	2.407084e+001	-5.787366e+000	9.018662e+001
1395053500	-4.361816e+000	3.571375e+001	-5.076167e+000	8.427463e+000	-5.027215e+000	9.094657e+000	-4.023209e+000	8.878938e+001
1410053000	-2.981637e+000	2.471976e+001	-6.132900e+000	-2.799014e+000	-6.062999e+000	-1.744694e+000	-3.036485e+000	8.451850e+001
1425052500	-2.267122e+000	1.583244e+001	-6.989034e+000	-1.139979e+001	-6.860727e+000	-1.023864e+001	-2.475272e+000	8.004459e+001
1440052000	-1.859808e+000	8.351362e+000	-7.642315e+000	-1.865996e+001	-7.451279e+000	-1.764051e+001	-2.154346e+000	7.580977e+001
1455051500	-1.616498e+000	1.688452e+000	-8.079930e+000	-2.505710e+001	-7.868279e+000	-2.427616e+001	-1.964240e+000	7.201264e+001
1470051000	-1.496008e+000	-4.403873e+000	-8.348223e+000	-3.109906e+001	-8.141571e+000	-3.060499e+001	-1.823656e+000	6.837855e+001
1485050500	-1.441638e+000	-1.011220e+001	-8.476347e+000	-3.701536e+001	-8.304561e+000	-3.652934e+001	-1.746489e+000	6.478367e+001
1500050000	-1.447230e+000	-1.574469e+001	-8.493193e+000	-4.282814e+001	-8.339950e+000	-4.214631e+001	-1.727101e+000	6.111454e+001
1515049500	-1.516430e+000	-2.148202e+001	-8.400801e+000	-4.834177e+001	-8.219418e+000	-4.738505e+001	-1.770446e+000	5.747935e+001
1530049000	-1.665103e+000	-2.744342e+001	-8.143583e+000	-5.380514e+001	-7.886205e+000	-5.271420e+001	-1.860459e+000	5.373718e+001
1545048500	-1.900878e+000	-3.383514e+001	-7.694420e+000	-5.958409e+001	-7.351339e+000	-5.867291e+001	-2.033471e+000	4.974272e+001
1560048000	-2.274761e+000	-4.086190e+001	-7.057174e+000	-6.596279e+001	-6.639542e+000	-6.569791e+001	-2.323450e+000	4.542345e+001
1575047500	-2.878342e+000	-4.889690e+001	-6.213658e+000	-7.350127e+001	-5.792038e+000	-7.413851e+001	-2.796035e+000	4.082006e+001
1590047000	-3.889045e+000	-5.818612e+001	-5.207213e+000	-8.310284e+001	-4.871863e+000	-8.457697e+001	-3.549373e+000	3.607672e+001
1605046500	-5.697318e+000	-6.872532e+001	-4.176968e+000	-9.550511e+001	-3.979741e+000	-9.728053e+001	-4.791458e+000	3.182506e+001
1620046000	-9.280200e+000	-7.901763e+001	-3.331859e+000	-1.110017e+002	-3.259296e+000	-1.124065e+002	-6.798103e+000	3.123224e+001
1635045500	-1.813707e+001	-7.095005e+001	-2.925374e+000	-1.289173e+002	-2.903739e+000	-1.295921e+002	-9.212295e+000	4.297717e+001
1650045000	-1.477727e+001	2.757511e+001	-3.117327e+000	-1.475631e+002	-3.069017e+000	-1.476893e+002	-9.080924e+000	6.702025e+001
1665044500	-7.842248e+000	2.426515e+001	-3.874506e+000	-1.648379e+002	-3.784831e+000	-1.647862e+002	-6.640271e+000	7.765814e+001
1680044000	-4.816751e+000	1.292979e+001	-4.998047e+000	-1.794522e+002	-4.877719e+000	-1.793101e+002	-4.685187e+000	7.690682e+001
1695043500	-3.251812e+000	2.277814e+000	-6.235731e+000	1.688889e+002	-6.092462e+000	1.691385e+002	-3.479045e+000	7.293063e+001
1710043000	-2.384325e+000	-6.775394e+000	-7.427714e+000	1.596754e+002	-7.256127e+000	1.599455e+002	-2.740287e+000	6.838392e+001
1725042500	-1.859178e+000	-1.459402e+001	-8.502827e+000	1.523184e+002	-8.296534e+000	1.525346e+002	-2.291029e+000	6.422981e+001
1740042000	-1.532217e+000	-2.144506e+001	-9.415961e+000	1.460807e+002	-9.187038e+000	1.462303e+002	-2.002763e+000	6.051028e+001
1755041500	-1.315867e+000	-2.764223e+001	-1.018830e+001	1.406391e+002	-9.935534e+000	1.407069e+002	-1.778631e+000	5.714647e+001
1770041000	-1.170489e+000	-3.336130e+001	-1.083651e+001	1.357003e+002	-1.053180e+001	1.358136e+002	-1.609799e+000	5.409951e+001
1785040500	-1.078134e+000	-3.869565e+001	-1.134066e+001	1.311194e+002	-1.097391e+001	1.310146e+002	-1.474273e+000	5.106966e+001
1800040000	-1.018513e+000	-4.375355e+001	-1.176807e+001	1.267073e+002	-1.132840e+001	1.261875e+002	-1.381029e+000	4.823604e+001
1815039500	-9.835603e-001	-4.859400e+001	-1.208468e+001	1.227043e+002	-1.159307e+001	1.212960e+002	-1.301932e+000	4.542140e+001
1830039000	-9.635595e-001	-5.337421e+001	-1.228774e+001	1.188783e+002	-1.182073e+001	1.163876e+002	-1.245402e+000	4.270807e+001
1845038500	-9.674273e-001	-5.809338e+001	-1.235269e+001	1.151153e+002	-1.199540e+001	1.116979e+002	-1.208744e+000	4.011013e+001
1860038000	-9.816674e-001	-6.279713e+001	-1.227660e+001	1.109531e+002	-1.210651e+001	1.070565e+002	-1.180470e+000	3.737312e+001
1875037500	-1.015479e+000	-6.757277e+001	-1.215033e+001	1.064727e+002	-1.217208e+001	1.027053e+002	-1.190700e+000	3.484309e+001
1890037000	-1.063296e+000	-7.247225e+001	-1.196762e+001	1.016833e+002	-1.213078e+001	9.874885e+001	-1.201665e+000	3.243976e+001
1905036500	-1.135109e+000	-7.751737e+001	-1.173160e+001	9.672763e+001	-1.194902e+001	9.488092e+001	-1.224460e+000	2.985965e+001
1920036000	-1.231670e+000	-8.285912e+001	-1.143094e+001	9.168358e+001	-1.160796e+001	9.089158e+001	-1.264367e+000	2.730048e+001
1935035500	-1.361489e+000	-8.850493e+001	-1.107017e+001	8.666805e+001	-1.111094e+001	8.644273e+001	-1.304185e+000	2.457054e+001
1950035000	-1.536380e+000	-9.459812e+001	-1.056681e+001	8.141394e+001	-1.044732e+001	8.109831e+001	-1.372917e+000	2.164916e+001
1965034500	-1.789999e+000	-1.012695e+002	-9.940854e+000	7.584135e+001	-9.718902e+000	7.465096e+001	-1.492101e+000	1.855601e+001
1980034000	-2.159450e+000	-1.086826e+002	-9.153601e+000	6.964331e+001	-8.933415e+000	6.719830e+001	-1.686388e+000	1.528678e+001
1995033500	-2.719351e+000	-1.172389e+002	-8.184739e+000	6.220724e+001	-8.114026e+000	5.875984e+001	-1.988419e+000	1.185303e+001
2010033000	-3.608198e+000	-1.273120e+002	-7.079228e+000	5.287641e+001	-7.241079e+000	4.929208e+001	-2.453293e+000	8.343998e+000
2025032500	-5.112109e+000	-1.391718e+002	-5.945813e+000	4.102524e+001	-6.300590e+000	3.836550e+001	-3.195139e+000	5.349344e+000
2040032000	-7.930376e+000	-1.531533e+002	-4.945483e+000	2.628373e+001	-5.338487e+000	2.510704e+001	-4.269443e+000	4.448386e+000
2055031500	-1.435823e+001	-1.663680e+002	-4.299241e+000	8.954772e+000	-4.581733e+000	8.712384e+000	-5.512348e+000	8.516211e+000
2070031000	-2.344351e+001	-4.178342e+001	-4.184364e+000	-9.859752e+000	-4.367306e+000	-1.014178e+001	-6.051143e+000	1.868616e+001
2085030500	-1.056698e+001	-4.050585e+001	-4.667763e+000	-2.816743e+001	-4.842525e+000	-2.845613e+001	-5.291675e+000	2.758811e+001
2100030000	-6.410116e+000	-5.543018e+001	-5.614825e+000	-4.432717e+001	-5.754264e+000	-4.429459e+001	-4.115782e+000	3.021813e+001
2115029500	-4.387834e+000	-6.912162e+001	-6.772990e+000	-5.757395e+001	-6.807663e+000	-5.748550e+001	-3.176028e+000	2.897725e+001
2130029000	-3.280403e+000	-8.102499e+001	-7.954093e+000	-6.830343e+001	-7.886680e+000	-6.877972e+001	-2.517153e+000	2.621215e+001
2145028500	-2.634980e+000	-9.144651e+001	-9.050838e+000	-7.713097e+001	-8.966771e+000	-7.853597e+001	-2.076345e+000	2.290072e+001
2160028000	-2.247688e+000	-1.008329e+002	-1.001114e+001	-8.461244e+001	-1.001207e+001	-8.681133e+001	-1.794857e+000	1.973032e+001
2175027500	-2.009443e+000	-1.094141e+002	-1.084340e+001	-9.121909e+001	-1.098908e+001	-9.382661e+001	-1.623040e+000	1.671747e+001
2190027000	-1.866518e+000	-1.175618e+002	-1.155258e+001	-9.729504e+001	-1.182986e+001	-9.974736e+001	-1.500421e+000	1.406181e+001
2205026500	-1.782709e+000	-1.254807e+002	-1.215411e+001	-1.030882e+002	-1.253195e+001	-1.050464e+002	-1.392914e+000	1.152847e+001
2220026000	-1.721196e+000	-1.331769e+002	-1.265862e+001	-1.087294e+002	-1.309767e+001	-1.101030e+002	-1.308882e+000	9.033450e+000
2235025500	-1.705730e+000	-1.407155e+002	-1.307856e+001	-1.141242e+002	-1.356979e+001	-1.151497e+002	-1.255840e+000	6.735021e+000
2250025000	-1.694279e+000	-1.483405e+002	-1.340288e+001	-1.198031e+002	-1.396119e+001	-1.203179e+002	-1.189659e+000	4.352221e+000
2265024500	-1.698800e+000	-1.558962e+002	-1.370014e+001	-1.257721e+002	-1.433377e+001	-1.254325e+002	-1.166150e+000	1.952159e+000
2280024000	-1.711262e+000	-1.635634e+002	-1.401212e+001	-1.317643e+002	-1.465746e+001	-1.301829e+002	-1.140777e+000	-3.316140e-001
2295023500	-1.741887e+000	-1.712522e+002	-1.433062e+001	-1.378407e+002	-1.488744e+001	-1.348432e+002	-1.113952e+000	-2.756298e+000
