!Agilent Technologies,E5071C,MY46101915,A.08.10
!Date: Mon Jan 01 00:43:14 2001
!Data & Calibration Information:
!Freq	S11:SOLT2(ON)	S21:SOLT2(ON)	S12:SOLT2(ON)	S22:SOLT2(ON)
# Hz S dB R 50
100000	-6.110530e+001	4.055670e+001	-1.235738e-002	2.328566e-002	9.003030e-003	-5.246768e-002	-6.696739e+001	1.033780e+001
40099500	-5.354540e+001	-8.417077e+001	-3.062852e-002	-6.463169e+000	-1.417137e-002	-6.443062e+000	-5.557975e+001	-9.496000e+001
80099000	-5.111839e+001	-7.365570e+001	-4.335540e-002	-1.279524e+001	-2.244644e-002	-1.278008e+001	-5.061180e+001	-1.400339e+002
120098500	-4.844898e+001	-9.244804e+001	-5.179423e-002	-1.914999e+001	-3.748699e-002	-1.909315e+001	-4.715329e+001	-1.602307e+002
160098000	-4.471268e+001	-9.143533e+001	-6.629022e-002	-2.546807e+001	-4.703766e-002	-2.541690e+001	-4.336474e+001	-1.726673e+002
200097500	-4.006737e+001	-9.179708e+001	-8.861376e-002	-3.175066e+001	-6.786126e-002	-3.170182e+001	-4.036545e+001	-1.782990e+002
240097000	-3.901474e+001	-9.959030e+001	-8.593111e-002	-3.806863e+001	-6.411482e-002	-3.800733e+001	-3.577500e+001	1.704744e+002
280096500	-3.683042e+001	-1.042765e+002	-9.825654e-002	-4.436519e+001	-7.902674e-002	-4.434609e+001	-3.366308e+001	1.616725e+002
320096000	-3.444152e+001	-1.100749e+002	-1.076121e-001	-5.067675e+001	-8.922813e-002	-5.063589e+001	-3.149012e+001	1.547766e+002
360095500	-3.169741e+001	-1.193441e+002	-1.171708e-001	-5.701174e+001	-1.001423e-001	-5.695177e+001	-2.932637e+001	1.512674e+002
400095000	-2.991383e+001	-1.241007e+002	-1.371909e-001	-6.338715e+001	-1.166431e-001	-6.331822e+001	-2.770188e+001	1.442272e+002
440094500	-2.756008e+001	-1.286126e+002	-1.537225e-001	-6.964864e+001	-1.354340e-001	-6.963310e+001	-2.618649e+001	1.397253e+002
480094000	-2.649150e+001	-1.415572e+002	-1.709503e-001	-7.594724e+001	-1.536289e-001	-7.582981e+001	-2.509974e+001	1.360861e+002
520093500	-2.526176e+001	-1.484792e+002	-1.886599e-001	-8.239512e+001	-1.671174e-001	-8.225177e+001	-2.407113e+001	1.307834e+002
560093000	-2.387286e+001	-1.571352e+002	-2.147781e-001	-8.869967e+001	-1.892098e-001	-8.862399e+001	-2.312094e+001	1.273363e+002
600092500	-2.254363e+001	-1.670146e+002	-2.329302e-001	-9.488711e+001	-2.138036e-001	-9.481973e+001	-2.201912e+001	1.240435e+002
640092000	-2.140090e+001	-1.736743e+002	-2.500917e-001	-1.013267e+002	-2.321766e-001	-1.012053e+002	-2.107456e+001	1.181875e+002
680091500	-2.031429e+001	1.776980e+002	-2.629589e-001	-1.076235e+002	-2.342893e-001	-1.074993e+002	-1.982771e+001	1.142410e+002
720091000	-1.947485e+001	1.705820e+002	-3.030714e-001	-1.140017e+002	-2.752790e-001	-1.139406e+002	-1.920566e+001	1.085985e+002
760090500	-1.875234e+001	1.622002e+002	-3.204156e-001	-1.203263e+002	-2.999753e-001	-1.202259e+002	-1.855416e+001	1.028270e+002
800090000	-1.771746e+001	1.535403e+002	-3.554055e-001	-1.266513e+002	-3.232534e-001	-1.265216e+002	-1.787515e+001	9.897645e+001
840089500	-1.688743e+001	1.441785e+002	-3.842954e-001	-1.329190e+002	-3.452907e-001	-1.328412e+002	-1.703959e+001	9.484219e+001
880089000	-1.628672e+001	1.362658e+002	-4.080477e-001	-1.393095e+002	-3.728717e-001	-1.392940e+002	-1.639995e+001	8.943905e+001
920088500	-1.572411e+001	1.278380e+002	-4.297631e-001	-1.457238e+002	-4.044362e-001	-1.456853e+002	-1.590740e+001	8.411358e+001
960088000	-1.503923e+001	1.191703e+002	-4.611354e-001	-1.521122e+002	-4.358871e-001	-1.520130e+002	-1.537915e+001	7.976784e+001
1000087500	-1.450979e+001	1.102413e+002	-4.915513e-001	-1.585093e+002	-4.528936e-001	-1.583854e+002	-1.474453e+001	7.514554e+001
1040087000	-1.408667e+001	1.020286e+002	-5.338427e-001	-1.647566e+002	-4.909206e-001	-1.647683e+002	-1.433597e+001	6.978476e+001
1080086500	-1.382920e+001	9.372745e+001	-5.501776e-001	-1.710767e+002	-5.205391e-001	-1.711097e+002	-1.412234e+001	6.482248e+001
1120086000	-1.349122e+001	8.459571e+001	-5.727675e-001	-1.775387e+002	-5.508382e-001	-1.774672e+002	-1.389908e+001	6.063726e+001
1160085500	-1.326346e+001	7.507205e+001	-6.062091e-001	1.761115e+002	-5.705467e-001	1.761556e+002	-1.355233e+001	5.645870e+001
1200085000	-1.308745e+001	6.593115e+001	-6.332742e-001	1.697712e+002	-5.971367e-001	1.697558e+002	-1.333155e+001	5.177252e+001
1240084500	-1.302154e+001	5.654571e+001	-6.454549e-001	1.634407e+002	-6.230525e-001	1.633656e+002	-1.323833e+001	4.726058e+001
1280084000	-1.303153e+001	4.687847e+001	-6.440102e-001	1.569411e+002	-6.363080e-001	1.570783e+002	-1.317409e+001	4.327450e+001
1320083500	-1.301008e+001	3.793724e+001	-6.562397e-001	1.503203e+002	-6.173421e-001	1.505262e+002	-1.302062e+001	3.961991e+001
1360083000	-1.307943e+001	2.820139e+001	-6.963798e-001	1.438670e+002	-6.460786e-001	1.438097e+002	-1.296829e+001	3.543133e+001
1400082500	-1.333346e+001	1.798264e+001	-6.868744e-001	1.374301e+002	-6.686794e-001	1.374472e+002	-1.310461e+001	3.149976e+001
1440082000	-1.346613e+001	6.928054e+000	-6.582934e-001	1.306508e+002	-6.268720e-001	1.308265e+002	-1.316313e+001	2.825036e+001
1480081500	-1.358500e+001	-5.053804e+000	-6.962930e-001	1.235375e+002	-6.393797e-001	1.236817e+002	-1.323247e+001	2.500712e+001
1520081000	-1.393005e+001	-1.882927e+001	-7.708401e-001	1.168126e+002	-7.015901e-001	1.169040e+002	-1.333845e+001	2.247469e+001
1560080500	-1.441941e+001	-3.340662e+001	-7.903690e-001	1.102795e+002	-6.981280e-001	1.101899e+002	-1.353040e+001	2.107293e+001
1600080000	-1.474219e+001	-5.058361e+001	-7.861566e-001	1.034042e+002	-7.221420e-001	1.029903e+002	-1.362128e+001	1.894775e+001
1640079500	-1.510208e+001	-6.762382e+001	-8.063532e-001	9.625123e+001	-7.869874e-001	9.590996e+001	-1.381531e+001	1.750221e+001
1680079000	-1.552906e+001	-8.598346e+001	-8.760178e-001	8.917550e+001	-8.478442e-001	8.904687e+001	-1.398823e+001	1.768939e+001
1720078500	-1.564841e+001	-1.055001e+002	-9.087522e-001	8.207580e+001	-8.598013e-001	8.187503e+001	-1.387712e+001	1.952772e+001
1760078000	-1.503472e+001	-1.268904e+002	-9.770012e-001	7.468017e+001	-9.313594e-001	7.428468e+001	-1.364680e+001	1.986625e+001
1800077500	-1.420400e+001	-1.472114e+002	-1.101897e+000	6.737472e+001	-1.071370e+000	6.669739e+001	-1.331648e+001	1.925560e+001
1840077000	-1.338824e+001	-1.664671e+002	-1.209066e+000	6.054793e+001	-1.265972e+000	5.970383e+001	-1.310873e+001	1.866742e+001
1880076500	-1.260314e+001	1.758586e+002	-1.268799e+000	5.341938e+001	-1.389054e+000	5.325031e+001	-1.287826e+001	1.948490e+001
1920076000	-1.168830e+001	1.602032e+002	-1.370005e+000	4.581964e+001	-1.412779e+000	4.608689e+001	-1.226211e+001	2.078416e+001
1960075500	-1.082263e+001	1.458694e+002	-1.528014e+000	3.853009e+001	-1.534667e+000	3.831079e+001	-1.147209e+001	2.016923e+001
2000075000	-9.985056e+000	1.325253e+002	-1.650113e+000	3.151467e+001	-1.757166e+000	3.119221e+001	-1.072387e+001	1.730837e+001
2040074500	-9.114377e+000	1.196459e+002	-1.707931e+000	2.387473e+001	-1.840300e+000	2.430105e+001	-9.986688e+000	1.440974e+001
2080074000	-8.342586e+000	1.069758e+002	-1.887113e+000	1.565613e+001	-1.943290e+000	1.637925e+001	-9.458314e+000	1.088223e+001
2120073500	-7.708899e+000	9.495199e+001	-2.157128e+000	8.163942e+000	-2.188239e+000	8.810463e+000	-8.866505e+000	7.748185e+000
2160073000	-7.143790e+000	8.312330e+001	-2.365213e+000	7.154464e-001	-2.361302e+000	1.506920e+000	-8.138682e+000	3.199303e+000
2200072500	-6.590927e+000	7.084735e+001	-2.567388e+000	-6.981891e+000	-2.519614e+000	-6.454524e+000	-7.537731e+000	-2.342178e+000
2240072000	-6.173155e+000	5.826856e+001	-2.774640e+000	-1.478044e+001	-2.788613e+000	-1.438114e+001	-7.069359e+000	-7.521264e+000
2280071500	-5.851940e+000	4.547886e+001	-3.047141e+000	-2.377422e+001	-3.044096e+000	-2.256792e+001	-6.583224e+000	-1.324466e+001
2320071000	-5.599815e+000	3.146481e+001	-3.644680e+000	-3.226048e+001	-3.450416e+000	-3.138112e+001	-6.230699e+000	-1.964743e+001
2360070500	-5.391484e+000	1.674735e+001	-4.171166e+000	-3.861616e+001	-4.003355e+000	-3.918544e+001	-5.894168e+000	-2.591754e+001
2400070000	-5.200879e+000	2.957869e-001	-4.417582e+000	-4.618975e+001	-4.414415e+000	-4.670248e+001	-5.505847e+000	-3.305126e+001
2440069500	-5.289755e+000	-1.810263e+001	-4.985010e+000	-5.633544e+001	-5.015042e+000	-5.621028e+001	-5.351195e+000	-3.970862e+001
2480069000	-5.461729e+000	-3.940125e+001	-6.206303e+000	-6.379393e+001	-6.173461e+000	-6.316573e+001	-5.152138e+000	-4.701222e+001
2520068500	-5.691881e+000	-6.331525e+001	-7.160983e+000	-6.761290e+001	-7.004723e+000	-6.781698e+001	-4.996435e+000	-5.406932e+001
2560068000	-5.750536e+000	-9.045920e+001	-7.996280e+000	-7.203125e+001	-8.103836e+000	-7.370220e+001	-4.669672e+000	-6.206987e+001
2600067500	-5.708660e+000	-1.206653e+002	-9.148139e+000	-7.593679e+001	-9.643903e+000	-7.519846e+001	-4.456636e+000	-7.115694e+001
2640067000	-5.506234e+000	-1.524329e+002	-1.041809e+001	-7.217482e+001	-1.055939e+001	-6.726012e+001	-4.423652e+000	-8.184411e+001
2680066500	-5.249287e+000	1.784416e+002	-1.014468e+001	-6.511607e+001	-9.440685e+000	-6.270407e+001	-4.712354e+000	-9.200941e+001
2720066000	-4.839470e+000	1.538630e+002	-8.857225e+000	-6.561528e+001	-8.747284e+000	-6.838856e+001	-4.969800e+000	-1.009965e+002
2760065500	-4.337618e+000	1.328780e+002	-8.228385e+000	-7.397375e+001	-8.696241e+000	-7.073225e+001	-5.086904e+000	-1.102578e+002
2800065000	-3.922785e+000	1.147322e+002	-8.360571e+000	-7.939797e+001	-7.701260e+000	-7.278544e+001	-5.272978e+000	-1.207610e+002
2840064500	-3.543302e+000	9.954000e+001	-8.111581e+000	-8.118838e+001	-6.841643e+000	-8.207812e+001	-5.399777e+000	-1.312320e+002
2880064000	-3.260881e+000	8.644222e+001	-7.176871e+000	-8.658230e+001	-6.802999e+000	-9.186462e+001	-5.580814e+000	-1.429733e+002
2920063500	-3.033118e+000	7.502462e+001	-6.665307e+000	-9.717170e+001	-6.889964e+000	-9.775715e+001	-5.666239e+000	-1.553505e+002
2960063000	-2.875051e+000	6.486037e+001	-6.988368e+000	-1.063031e+002	-6.376446e+000	-1.034392e+002	-5.781593e+000	-1.689201e+002
3000062500	-2.685483e+000	5.590316e+001	-6.993772e+000	-1.099854e+002	-5.809894e+000	-1.149160e+002	-5.851057e+000	1.769498e+002
3040062000	-2.381848e+000	4.836011e+001	-6.100473e+000	-1.172231e+002	-6.079731e+000	-1.274421e+002	-6.099801e+000	1.594543e+002
3080061500	-2.354745e+000	4.436886e+001	-5.995589e+000	-1.301143e+002	-6.780384e+000	-1.371076e+002	-6.083079e+000	1.418402e+002
3120061000	-2.840267e+000	4.236171e+001	-6.664578e+000	-1.402686e+002	-7.735238e+000	-1.444366e+002	-5.084702e+000	1.317258e+002
3160060500	-3.301399e+000	3.549933e+001	-7.418878e+000	-1.452619e+002	-8.693258e+000	-1.455392e+002	-3.894170e+000	1.248060e+002
3200060000	-3.076086e+000	2.020341e+001	-6.677543e+000	-1.470978e+002	-8.062905e+000	-1.431548e+002	-3.147665e+000	1.150227e+002
3240059500	-2.418873e+000	1.105170e+000	-5.452190e+000	-1.633712e+002	-6.525373e+000	-1.519167e+002	-2.682684e+000	9.972202e+001
3280059000	-2.497454e+000	-1.191793e+001	-6.486162e+000	1.755927e+002	-6.121298e+000	-1.683756e+002	-2.968431e+000	8.546632e+001
3320058500	-2.036325e+000	-1.673140e+001	-8.907535e+000	1.661045e+002	-6.830174e+000	1.738297e+002	-3.578277e+000	7.990990e+001
3360058000	-5.312727e-001	-2.435269e+001	-1.001461e+001	1.704949e+002	-9.428063e+000	1.567422e+002	-4.091553e+000	7.441795e+001
3400057500	2.090260e-001	-3.132863e+001	-8.918563e+000	1.646564e+002	-1.358809e+001	1.643109e+002	-4.729592e+000	6.337823e+001
3440057000	4.753054e-001	-3.288769e+001	-8.947298e+000	1.455110e+002	-1.201149e+001	-1.712385e+002	-4.559335e+000	4.635531e+001
3480056500	1.911882e-001	-3.073944e+001	-1.209736e+001	1.288151e+002	-8.844903e+000	-1.787785e+002	-4.387315e+000	2.394658e+001
3520056000	1.411059e-001	-2.452647e+001	-1.467762e+001	1.458313e+002	-7.225086e+000	1.651065e+002	-4.561897e+000	3.913058e+000
3560055500	3.499609e-001	-2.219533e+001	-1.178882e+001	1.472387e+002	-6.469465e+000	1.416592e+002	-4.186981e+000	-1.937163e+001
3600055000	-5.921579e-001	-2.128101e+001	-1.160033e+001	1.231635e+002	-7.895446e+000	1.152128e+002	-3.880538e+000	-4.150152e+001
3640054500	-1.726210e+000	-1.446416e+001	-1.509072e+001	1.069097e+002	-1.080204e+001	9.626284e+001	-3.235322e+000	-5.312801e+001
3680054000	-2.483222e+000	-1.008174e+001	-1.921926e+001	1.324164e+002	-1.490478e+001	8.586608e+001	-2.348121e+000	-6.019160e+001
3720053500	-3.827314e+000	-1.089884e+001	-1.435333e+001	1.494455e+002	-1.941557e+001	1.013604e+002	-1.896249e+000	-6.439827e+001
3760053000	-5.731853e+000	-1.871403e+001	-1.117371e+001	1.277538e+002	-1.780794e+001	1.257013e+002	-1.258898e+000	-6.568705e+001
3800052500	-7.304688e+000	-4.180595e+001	-1.165594e+001	9.718645e+001	-1.552513e+001	1.183220e+002	-5.661031e-001	-6.953287e+001
3840052000	-6.070645e+000	-6.884696e+001	-1.613728e+001	7.800106e+001	-1.479417e+001	1.032377e+002	-3.999213e-001	-7.138562e+001
3880051500	-2.513086e+000	-8.355613e+001	-2.121812e+001	1.330648e+002	-1.498094e+001	7.821855e+001	-2.141205e-001	-7.011333e+001
3920051000	1.560359e+000	-9.636168e+001	-1.117867e+001	1.345632e+002	-1.888788e+001	3.155604e+001	-1.397245e-001	-6.988211e+001
3960050500	4.579011e+000	-1.078154e+002	-8.035912e+000	9.720705e+001	-2.453946e+001	-9.302912e+001	-4.248457e-001	-6.641210e+001
4000050000	6.919927e+000	-1.150566e+002	-7.843402e+000	5.891429e+001	-1.517764e+001	-1.687948e+002	-5.679694e-002	-6.133790e+001
4040049500	7.962588e+000	-1.217836e+002	-1.138524e+001	1.794865e+001	-1.091370e+001	1.481483e+002	2.410943e-001	-5.986674e+001
4080049000	7.547328e+000	-1.231332e+002	-2.563494e+001	2.458563e+001	-9.649307e+000	1.093639e+002	2.404388e-002	-5.681981e+001
4120048500	6.834559e+000	-1.227203e+002	-1.515806e+001	8.650547e+001	-1.039666e+001	7.227002e+001	-2.976310e-002	-5.448851e+001
4160048000	5.575611e+000	-1.205225e+002	-1.217452e+001	5.584560e+001	-1.289216e+001	4.169805e+001	-3.951536e-001	-5.291669e+001
4200047500	4.323430e+000	-1.123865e+002	-1.233539e+001	2.615527e+001	-1.587915e+001	1.458784e+001	-6.774302e-001	-4.848460e+001
4240047000	3.094344e+000	-1.012928e+002	-1.513315e+001	-4.838633e+000	-2.037534e+001	-2.116296e+001	-6.769487e-001	-4.460781e+001
4280046500	9.526120e-001	-8.973236e+001	-2.553332e+001	-1.959042e+001	-2.979580e+001	-9.453551e+001	-1.169191e+000	-4.406401e+001
4320046000	-2.155178e+000	-7.750161e+001	-2.233576e+001	8.370656e+001	-2.505486e+001	1.472963e+002	-2.062160e+000	-4.420110e+001
4360045500	-6.206186e+000	-7.008821e+001	-1.670033e+001	6.563683e+001	-2.007589e+001	1.109605e+002	-2.925093e+000	-4.676695e+001
4400045000	-1.391188e+001	-7.681208e+001	-1.585130e+001	4.185867e+001	-1.805821e+001	8.195484e+001	-4.358907e+000	-5.122788e+001
4440044500	-1.402568e+001	1.789492e+002	-1.867707e+001	2.649998e+001	-1.895566e+001	4.397762e+001	-7.392709e+000	-5.458444e+001
4480044000	-4.229834e+000	-1.788957e+002	-2.202454e+001	5.223810e+001	-2.403614e+001	-1.046878e+001	-1.377899e+001	-6.436468e+001
4520043500	2.827667e-001	-1.626706e+002	-1.970389e+001	6.630730e+001	-2.673481e+001	-1.195263e+002	-2.371974e+001	1.710196e+002
4560043000	2.748269e+000	-1.436178e+002	-2.058737e+001	6.030469e+001	-1.947017e+001	1.711827e+002	-1.236257e+001	1.324639e+002
4600042500	4.889202e+000	-1.264168e+002	-2.443955e+001	8.914584e+001	-1.451368e+001	1.277063e+002	-7.990094e+000	1.242948e+002
4640042000	6.604095e+000	-1.105624e+002	-1.804931e+001	1.171024e+002	-1.229394e+001	9.144955e+001	-5.502987e+000	1.179936e+002
4680041500	8.036768e+000	-9.203019e+001	-1.445721e+001	1.027058e+002	-1.135897e+001	6.456931e+001	-3.898508e+000	1.174561e+002
4720041000	9.278944e+000	-7.507407e+001	-1.371284e+001	7.849898e+001	-1.025329e+001	3.868564e+001	-2.669747e+000	1.193836e+002
4760040500	1.015329e+001	-6.307065e+001	-1.706706e+001	4.164772e+001	-9.559694e+000	3.771148e+000	-2.043406e+000	1.204328e+002
4800040000	1.122814e+001	-5.338089e+001	-3.613921e+001	-1.655280e+002	-1.006310e+001	-3.315999e+001	-1.835825e+000	1.236650e+002
4840039500	1.301701e+001	-5.367326e+001	-1.214555e+001	1.416764e+002	-1.020781e+001	-7.607996e+001	-1.398329e+000	1.265846e+002
4880039000	1.288835e+001	-6.947428e+001	-6.483228e+000	7.990564e+001	-1.179778e+001	-1.403353e+002	-1.540539e+000	1.293117e+002
4920038500	8.903592e+000	-8.179882e+001	-7.768605e+000	1.481371e+001	-1.695408e+001	1.466481e+002	-1.339029e+000	1.374962e+002
4960038000	2.007710e+000	-8.077823e+001	-1.432653e+001	-4.195845e+001	-2.350392e+001	7.690567e+001	-1.090108e+000	1.412270e+002
5000037500	-7.513833e+000	-5.117993e+001	-2.769680e+001	-9.996876e+001	-2.918026e+001	3.089657e+001	-1.189192e+000	1.464523e+002
5040037000	-1.059188e+001	3.966834e+001	-2.570304e+001	8.737591e+001	-3.420922e+001	2.486118e+001	-1.162143e+000	1.521916e+002
5080036500	-5.933226e+000	7.952269e+001	-2.052379e+001	3.948821e+001	-3.285156e+001	5.347401e+001	-1.211830e+000	1.576032e+002
5120036000	-3.450618e+000	1.000086e+002	-2.096368e+001	8.640338e-001	-2.869591e+001	4.924547e+001	-1.335767e+000	1.639843e+002
5160035500	-2.030439e+000	1.164423e+002	-2.360437e+001	-3.152556e+001	-2.594748e+001	3.700297e+001	-1.378676e+000	1.703662e+002
5200035000	-1.225824e+000	1.308554e+002	-2.890994e+001	-7.076969e+001	-2.354482e+001	1.849656e+001	-1.454466e+000	1.762506e+002
5240034500	-7.970330e-001	1.446017e+002	-4.129605e+001	1.590598e+002	-2.236621e+001	-6.941635e+000	-1.632335e+000	-1.776924e+002
5280034000	-4.431721e-001	1.580808e+002	-2.938611e+001	6.336892e+001	-2.239153e+001	-3.229039e+001	-1.803659e+000	-1.714545e+002
5320033500	-2.036854e-001	1.708765e+002	-2.588353e+001	2.552041e+001	-2.305215e+001	-5.664869e+001	-2.015926e+000	-1.656534e+002
5360033000	-1.659041e-001	-1.765067e+002	-2.521664e+001	-1.025698e+001	-2.418248e+001	-8.318857e+001	-2.325183e+000	-1.597358e+002
5400032500	-2.638983e-001	-1.641951e+002	-2.722102e+001	-5.108541e+001	-2.600087e+001	-1.194077e+002	-2.675979e+000	-1.532469e+002
5440032000	-5.096712e-001	-1.530634e+002	-3.548298e+001	-9.946621e+001	-2.928643e+001	-1.740415e+002	-3.115469e+000	-1.468027e+002
5480031500	-9.742442e-001	-1.425645e+002	-3.603356e+001	7.252553e+001	-3.007879e+001	1.153764e+002	-3.715739e+000	-1.399622e+002
5520031000	-1.746496e+000	-1.325624e+002	-2.643497e+001	2.504918e+001	-2.636775e+001	5.809933e+001	-4.445129e+000	-1.328125e+002
5560030500	-3.470992e+000	-1.212967e+002	-2.332427e+001	-2.338332e+001	-2.395709e+001	1.068368e+001	-5.539008e+000	-1.241133e+002
5600030000	-6.128605e+000	-9.849551e+001	-2.402647e+001	-6.967683e+001	-2.432494e+001	-2.224501e+001	-6.580567e+000	-1.095163e+002
5640029500	-6.969510e+000	-6.134290e+001	-2.739469e+001	-1.104793e+002	-2.460399e+001	-3.758762e+001	-6.928956e+000	-9.299345e+001
5680029000	-5.267376e+000	-3.307566e+001	-3.479346e+001	-1.429860e+002	-2.309353e+001	-5.434163e+001	-6.798786e+000	-7.637137e+001
5720028500	-3.580773e+000	-1.740777e+001	-4.253103e+001	-2.917262e+001	-2.180798e+001	-8.364761e+001	-5.960768e+000	-6.199117e+001
5760028000	-2.672242e+000	-6.229632e+000	-3.139806e+001	-5.745072e+001	-2.254821e+001	-1.190852e+002	-4.970994e+000	-5.225734e+001
5800027500	-2.217217e+000	5.641586e+000	-2.927320e+001	-9.447458e+001	-2.459945e+001	-1.501948e+002	-4.183604e+000	-4.456670e+001
5840027000	-1.949572e+000	1.792745e+001	-2.946457e+001	-1.324795e+002	-2.682403e+001	1.764689e+002	-3.608244e+000	-3.785845e+001
5880026500	-1.902026e+000	3.025501e+001	-3.230119e+001	-1.780253e+002	-3.035609e+001	1.328786e+002	-3.268948e+000	-3.163910e+001
5920026000	-1.996390e+000	4.284153e+001	-4.109861e+001	1.159022e+002	-3.460650e+001	7.724870e+001	-3.063855e+000	-2.544314e+001
5960025500	-2.170346e+000	5.552860e+001	-3.896777e+001	-3.583398e+001	-3.517948e+001	1.084523e+001	-2.928241e+000	-1.935118e+001
6000025000	-2.420765e+000	6.873686e+001	-3.220928e+001	-9.091600e+001	-3.296912e+001	-4.042816e+001	-2.863774e+000	-1.303112e+001
6040024500	-2.755325e+000	8.272556e+001	-2.967398e+001	-1.388343e+002	-3.151364e+001	-7.764315e+001	-2.816818e+000	-6.414067e+000
6080024000	-3.294295e+000	9.767301e+001	-3.006118e+001	1.705344e+002	-3.117191e+001	-1.086137e+002	-2.809305e+000	6.694303e-002
